T0630 000:025.919   SEGGER J-Link V6.70e Log File
T0630 000:026.103   DLL Compiled: Apr 17 2020 17:55:05
T0630 000:026.113   Logging started @ 2020-07-15 01:54
T0630 000:026.124 JLINK_SetWarnOutHandler(...)
T0630 000:026.133 - 0.012ms
T0630 000:026.144 JLINK_OpenEx(...)
T0630 000:028.020   Firmware: J-Link V9 compiled Jun  2 2222 22:22:22
T0630 000:028.276   Decompressing FW timestamp took 213 us
T0630 000:035.461   Hardware: V9.40
T0630 000:035.488   S/N: 81480416
T0630 000:035.498   OEM: SEGGER
T0630 000:035.508   Feature(s): GDB, RDI, FlashBP, FlashDL, JFlash, RDDI
T0630 000:036.796   TELNET listener socket opened on port 19021
T0630 000:036.944   WEBSRV Starting webserver
T0630 000:037.167   WEBSRV Webserver running on local port 19080
T0630 000:037.181 - 11.040ms returns "O.K."
T0630 000:037.203 JLINK_GetEmuCaps()
T0630 000:037.211 - 0.010ms returns 0xB9FF7BBF
T0630 000:037.222 JLINK_TIF_GetAvailable(...)
T0630 000:037.401 - 0.190ms
T0630 000:037.429 JLINK_SetErrorOutHandler(...)
T0630 000:037.439 - 0.015ms
T0630 000:037.476 JLINK_ExecCommand("ProjectFile = "G:\SmartCar\iMag\MagnetSensor\mdk\JLinkSettings.ini"", ...). 
T0630 000:050.973   Ref file found at: F:\Keil_v5\ARM\Segger\JLinkDevices.ref
T0630 000:051.194   XML referenced by ref file: F:\Keil_v5\jlink\JLinkDevices.xml
T0630 000:051.381   XML file found at: F:\Keil_v5\ARM\Segger\JLinkDevices.xml
T0630 000:051.392   Ignoring XML in DLL dir and using ref file instead.
T0630 000:052.430   F:\Keil_v5\jlink\JLinkDevices.xml evaluated successfully.
T0630 000:070.628 - 33.179ms returns 0x00
T0630 000:070.720 JLINK_ExecCommand("Device = MK66FX1M0VLQ18", ...). 
T0630 000:071.821   Device "MK66FX1M0XXX18" selected.
T0630 000:072.427 - 1.699ms returns 0x00
T0630 000:072.450 JLINK_ExecCommand("DisableConnectionTimeout", ...). 
T0630 000:072.469 - 0.010ms returns 0x01
T0630 000:072.482 JLINK_GetHardwareVersion()
T0630 000:072.492 - 0.014ms returns 0x16F30
T0630 000:072.505 JLINK_GetDLLVersion()  returns 67005
T0630 000:072.526 JLINK_GetFirmwareString(...)
T0630 000:072.535 - 0.013ms
T0630 000:072.574 JLINK_GetDLLVersion()  returns 67005
T0630 000:072.587 JLINK_GetCompileDateTime()
T0630 000:072.595 - 0.013ms
T0630 000:072.618 JLINK_GetFirmwareString(...)
T0630 000:072.627 - 0.013ms
T0630 000:072.645 JLINK_GetHardwareVersion()
T0630 000:072.655 - 0.014ms returns 0x16F30
T0630 000:072.707 JLINK_TIF_Select(JLINKARM_TIF_JTAG)
T0630 000:073.715 - 1.017ms returns 0x00
T0630 000:073.747 JLINK_SetSpeed(50000)
T0630 000:073.866 - 0.126ms
T0630 000:073.882 JLINK_GetIdData(pIdData)
T0630 000:074.126   InitTarget()
T0630 000:127.083   TotalIRLen = 4, IRPrint = 0x01
T0630 000:127.542   JTAG chain detection found 1 devices:
T0630 000:127.568    #0 Id: 0x4BA00477, IRLen: 04, CoreSight JTAG-DP
T0630 000:127.982   Old FW that does not support reading DPIDR via DAP jobs
T0630 000:128.550   Unknown DP version. Assuming DPv0
T0630 000:128.576   Scanning AP map to find all available APs
T0630 000:129.356   AP[2]: Stopped AP scan as end of AP map has been reached
T0630 000:129.378   AP[0]: AHB-AP (IDR: 0x24770011)
T0630 000:129.394   AP[1]: JTAG-AP (IDR: 0x001C0000)
T0630 000:129.409   Iterating through AP map to find AHB-AP to use
T0630 000:130.139   AP[0]: Core found
T0630 000:130.159   AP[0]: AHB-AP ROM base: 0xE00FF000
T0630 000:130.633   CPUID register: 0x410FC241. Implementer code: 0x41 (ARM)
T0630 000:130.656   Found Cortex-M4 r0p1, Little endian.
T0630 000:130.986    -- Max. mem block: 0x00010870
T0630 000:131.013   CPU_ReadMem(4 bytes @ 0xE000EDF0)
T0630 000:131.968   CPU_WriteMem(4 bytes @ 0xE000EDF0)
T0630 000:132.219   CPU_ReadMem(4 bytes @ 0xE0002000)
T0630 000:132.483   FPUnit: 6 code (BP) slots and 2 literal slots
T0630 000:132.498   CPU_ReadMem(4 bytes @ 0xE000EDFC)
T0630 000:132.750   CPU_WriteMem(4 bytes @ 0xE000EDFC)
T0630 000:132.976   CPU_ReadMem(4 bytes @ 0xE0001000)
T0630 000:133.238   CPU_WriteMem(4 bytes @ 0xE0001000)
T0630 000:133.514   CPU_ReadMem(4 bytes @ 0xE000ED88)
T0630 000:133.771   CPU_WriteMem(4 bytes @ 0xE000ED88)
T0630 000:134.031   CPU_ReadMem(4 bytes @ 0xE000ED88)
T0630 000:134.252   CPU_WriteMem(4 bytes @ 0xE000ED88)
T0630 000:134.527   CoreSight components:
T0630 000:134.551   ROMTbl[0] @ E00FF000
T0630 000:134.562   CPU_ReadMem(64 bytes @ 0xE00FF000)
T0630 000:134.926   CPU_ReadMem(32 bytes @ 0xE000EFE0)
T0630 000:135.264   ROMTbl[0][0]: E000E000, CID: B105E00D, PID: 000BB00C SCS-M7
T0630 000:135.279   CPU_ReadMem(32 bytes @ 0xE0001FE0)
T0630 000:135.607   ROMTbl[0][1]: E0001000, CID: B105E00D, PID: 003BB002 DWT
T0630 000:135.622   CPU_ReadMem(32 bytes @ 0xE0002FE0)
T0630 000:135.916   ROMTbl[0][2]: E0002000, CID: B105E00D, PID: 002BB003 FPB
T0630 000:135.930   CPU_ReadMem(32 bytes @ 0xE0000FE0)
T0630 000:136.252   ROMTbl[0][3]: E0000000, CID: B105E00D, PID: 003BB001 ITM
T0630 000:136.266   CPU_ReadMem(32 bytes @ 0xE0040FE0)
T0630 000:136.604   ROMTbl[0][4]: E0040000, CID: B105900D, PID: 000BB9A1 TPIU
T0630 000:136.619   CPU_ReadMem(32 bytes @ 0xE0041FE0)
T0630 000:136.990   ROMTbl[0][5]: E0041000, CID: B105900D, PID: 000BB925 ETM
T0630 000:137.005   CPU_ReadMem(32 bytes @ 0xE0042FE0)
T0630 000:137.375   ROMTbl[0][6]: E0042000, CID: B105900D, PID: 003BB907 ETB
T0630 000:137.390   CPU_ReadMem(32 bytes @ 0xE0043FE0)
T0630 000:137.718   ROMTbl[0][7]: E0043000, CID: B105900D, PID: 001BB908 CSTF
T0630 000:137.765   pIdData->ScanLen=4
T0630 000:137.775   
T0630 000:137.782   pIdData->NumDevices=1
T0630 000:137.791   
T0630 000:137.798   pIdData->aId[0]=0x4BA00477
T0630 000:137.807   
T0630 000:137.816   pIdData->aIrRead[0]=0
T0630 000:137.832   
T0630 000:137.845   pIdData->aScanLen[0]=0
T0630 000:137.855   
T0630 000:137.861   pIdData->aScanRead[0]=0
T0630 000:137.871   
T0630 000:137.877 - 63.997ms
T0630 000:137.897 JLINK_JTAG_GetDeviceID(DeviceIndex = 0)
T0630 000:137.904 - 0.010ms returns 0x4BA00477
T0630 000:137.916 JLINK_JTAG_GetDeviceInfo(DeviceIndex = 0)
T0630 000:137.923 - 0.010ms returns 0x00
T0630 000:137.935 JLINK_GetDLLVersion()  returns 67005
T0630 000:138.001 JLINK_CORE_GetFound()
T0630 000:138.011 - 0.013ms returns 0xE0000FF
T0630 000:138.021 JLINK_GetDebugInfo(0x100 = JLINKARM_ROM_TABLE_ADDR_INDEX)
T0630 000:138.033   Value=0xE00FF000
T0630 000:138.042 - 0.024ms returns 0x00
T0630 000:138.063 JLINK_GetDebugInfo(0x100 = JLINKARM_ROM_TABLE_ADDR_INDEX)
T0630 000:138.071   Value=0xE00FF000
T0630 000:138.080 - 0.020ms returns 0x00
T0630 000:138.089 JLINK_GetDebugInfo(0x101 = JLINKARM_DEBUG_INFO_ETM_ADDR_INDEX)
T0630 000:138.096   Value=0xE0041000
T0630 000:138.105 - 0.019ms returns 0x00
T0630 000:138.115   JLINK_ReadMemEx(0xE0041FD0, 0x0020 Bytes, ..., Flags = 0x02000004)
T0630 000:138.141   CPU_ReadMem(32 bytes @ 0xE0041FD0)
T0630 000:138.443   Data:  04 00 00 00 00 00 00 00 00 00 00 00 00 00 00 00 ...
T0630 000:138.456 - 0.345ms returns 0x20
T0630 000:138.467 JLINK_GetDebugInfo(0x102 = JLINKARM_DEBUG_INFO_MTB_ADDR_INDEX)
T0630 000:138.475   Value=0x00000000
T0630 000:138.484 - 0.019ms returns 0x00
T0630 000:138.493 JLINK_GetDebugInfo(0x103 = JLINKARM_DEBUG_INFO_TPIU_ADDR_INDEX)
T0630 000:138.500   Value=0xE0040000
T0630 000:138.509 - 0.019ms returns 0x00
T0630 000:138.518 JLINK_GetDebugInfo(0x104 = JLINKARM_DEBUG_INFO_ITM_ADDR_INDEX)
T0630 000:138.525   Value=0xE0000000
T0630 000:138.534 - 0.019ms returns 0x00
T0630 000:138.543 JLINK_GetDebugInfo(0x105 = JLINKARM_DEBUG_INFO_DWT_ADDR_INDEX)
T0630 000:138.550   Value=0xE0001000
T0630 000:138.559 - 0.019ms returns 0x00
T0630 000:138.567 JLINK_GetDebugInfo(0x106 = JLINKARM_DEBUG_INFO_FPB_ADDR_INDEX)
T0630 000:138.574   Value=0xE0002000
T0630 000:138.583 - 0.019ms returns 0x00
T0630 000:138.592 JLINK_GetDebugInfo(0x107 = JLINKARM_DEBUG_INFO_NVIC_ADDR_INDEX)
T0630 000:138.599   Value=0xE000E000
T0630 000:138.608 - 0.019ms returns 0x00
T0630 000:138.617 JLINK_GetDebugInfo(0x10C = JLINKARM_DEBUG_INFO_DBG_ADDR_INDEX)
T0630 000:138.624   Value=0xE000EDF0
T0630 000:138.633 - 0.019ms returns 0x00
T0630 000:138.642 JLINK_GetDebugInfo(0x01 = Unknown)
T0630 000:138.651   Value=0x00000001
T0630 000:138.663 - 0.026ms returns 0x00
T0630 000:138.676 JLINK_ReadMemU32(0xE000ED00, 0x0001 Items, ...)
T0630 000:138.688   CPU_ReadMem(4 bytes @ 0xE000ED00)
T0630 000:138.941   Data:  41 C2 0F 41
T0630 000:138.957    - CPUID
T0630 000:138.967 - 0.294ms returns 1
T0630 000:138.978 JLINK_GetDebugInfo(0x10F = JLINKARM_DEBUG_INFO_HAS_CORTEX_M_SECURITY_EXT_INDEX)
T0630 000:138.986   Value=0x00000000
T0630 000:138.995 - 0.019ms returns 0x00
T0630 000:139.008 JLINK_SetResetType(JLINKARM_CM3_RESET_TYPE_NORMAL)
T0630 000:139.015 - 0.010ms returns JLINKARM_CM3_RESET_TYPE_NORMAL
T0630 000:139.024 JLINK_Reset()
T0630 000:139.045   CPU is running
T0630 000:139.056   CPU_WriteMem(4 bytes @ 0xE000EDF0)
T0630 000:139.260   CPU is running
T0630 000:139.275   CPU_WriteMem(4 bytes @ 0xE000EDFC)
T0630 000:139.490   Reset: Halt core after reset via DEMCR.VC_CORERESET.
T0630 000:139.517   Reset: Reset device via AIRCR.SYSRESETREQ.
T0630 000:139.528   CPU is running
T0630 000:139.538   CPU_WriteMem(4 bytes @ 0xE000ED0C)
T0630 000:191.750   CPU_ReadMem(4 bytes @ 0xE000EDF0)
T0630 000:192.145   CPU_ReadMem(4 bytes @ 0xE000EDF0)
T0630 000:192.515   CPU is running
T0630 000:192.531   CPU_WriteMem(4 bytes @ 0xE000EDF0)
T0630 000:192.827   CPU is running
T0630 000:192.843   CPU_WriteMem(4 bytes @ 0xE000EDFC)
T0630 000:198.677   CPU_ReadMem(4 bytes @ 0xE000EDF0)
T0630 000:200.181   CPU_WriteMem(4 bytes @ 0xE000EDFC)
T0630 000:200.479   CPU_WriteMem(4 bytes @ 0xE0001028)
T0630 000:200.753   CPU_WriteMem(4 bytes @ 0xE0001038)
T0630 000:200.965   CPU_WriteMem(4 bytes @ 0xE0001048)
T0630 000:201.172   CPU_WriteMem(4 bytes @ 0xE0001058)
T0630 000:201.492   AfterResetTarget()
T0630 000:219.554   CPU_WriteMem(4 bytes @ 0xE0002000)
T0630 000:219.797   CPU_ReadMem(4 bytes @ 0xE000EDFC)
T0630 000:220.048   CPU_ReadMem(4 bytes @ 0xE0001000)
T0630 000:220.380 - 81.364ms
T0630 000:220.453 JLINK_ReadReg(R15 (PC))
T0630 000:220.467 - 0.017ms returns 0x00000424
T0630 000:220.477 JLINK_ReadReg(XPSR)
T0630 000:220.484 - 0.011ms returns 0x01000000
T0630 000:220.494 JLINK_Halt()
T0630 000:220.501 - 0.009ms returns 0x00
T0630 000:220.510 JLINK_ReadMemU32(0xE000EDF0, 0x0001 Items, ...)
T0630 000:220.523   CPU_ReadMem(4 bytes @ 0xE000EDF0)
T0630 000:220.771   Data:  0B 00 03 00
T0630 000:220.784    - DHCSR
T0630 000:220.793 - 0.286ms returns 1
T0630 000:220.805 JLINK_WriteU32(0xE000EDF0, 0xA05F0003)
T0630 000:220.812    - DHCSR
T0630 000:220.834   CPU_WriteMem(4 bytes @ 0xE000EDF0)
T0630 000:221.043 - 0.245ms returns 0
T0630 000:221.058 JLINK_WriteU32(0xE000EDFC, 0x01000000)
T0630 000:221.065    - DEMCR
T0630 000:221.080   CPU_WriteMem(4 bytes @ 0xE000EDFC)
T0630 000:221.330 - 0.278ms returns 0
T0630 000:221.381 JLINK_GetHWStatus(...)
T0630 000:221.545 - 0.170ms returns 0x00
T0630 000:221.582 JLINK_GetNumBPUnits(Type = 0xFFFFFF00)
T0630 000:221.593 - 0.018ms returns 0x06
T0630 000:221.610 JLINK_GetNumBPUnits(Type = 0xF0)
T0630 000:221.624 - 0.017ms returns 0x2000
T0630 000:221.634 JLINK_GetNumWPUnits()
T0630 000:221.640 - 0.009ms returns 0x04
T0630 000:221.666 JLINK_GetSpeed()
T0630 000:221.673 - 0.010ms returns 0x3A98
T0630 000:221.690 JLINK_ReadMemU32(0xE000E004, 0x0001 Items, ...)
T0630 000:221.702   CPU_ReadMem(4 bytes @ 0xE000E004)
T0630 000:221.957   Data:  03 00 00 00
T0630 000:221.969 - 0.283ms returns 1
T0630 000:221.980 JLINK_ReadMemU32(0xE000E004, 0x0001 Items, ...)
T0630 000:221.992   CPU_ReadMem(4 bytes @ 0xE000E004)
T0630 000:222.238   Data:  03 00 00 00
T0630 000:222.251 - 0.273ms returns 1
T0630 000:222.262 JLINK_WriteMemEx(0xE0001000, 0x001C Bytes, ..., Flags = 0x02000004)
T0630 000:222.270   Data:  01 00 00 00 00 00 00 00 00 00 00 00 00 00 00 00 ...
T0630 000:222.868   CPU_WriteMem(28 bytes @ 0xE0001000)
T0630 000:223.147 - 0.894ms returns 0x1C
T0630 000:223.180 JLINK_ReadReg(R15 (PC))
T0630 000:223.191 - 0.014ms returns 0x00000424
T0630 000:223.200 JLINK_ReadReg(XPSR)
T0630 000:223.208 - 0.011ms returns 0x01000000
T0630 000:229.421   JLINK_ReadMemEx(0xE0001004, 0x0004 Bytes, ..., Flags = 0x02000000)
T0630 000:229.459   Data:  00 00 00 00
T0630 000:229.470    - DWT_CYCCNT
T0630 000:229.479 - 0.063ms returns 0x04
T0630 000:295.597 JLINK_SetResetType(JLINKARM_CM3_RESET_TYPE_NORMAL)
T0630 000:295.618 - 0.024ms returns JLINKARM_CM3_RESET_TYPE_NORMAL
T0630 000:295.628 JLINK_Reset()
T0630 000:295.646   CPU_WriteMem(4 bytes @ 0xE000EDF0)
T0630 000:295.925   CPU_WriteMem(4 bytes @ 0xE000EDFC)
T0630 000:296.257   Reset: Halt core after reset via DEMCR.VC_CORERESET.
T0630 000:296.278   Reset: Reset device via AIRCR.SYSRESETREQ.
T0630 000:296.290   CPU_WriteMem(4 bytes @ 0xE000ED0C)
T0630 000:349.267   CPU_ReadMem(4 bytes @ 0xE000EDF0)
T0630 000:349.595   CPU_ReadMem(4 bytes @ 0xE000EDF0)
T0630 000:349.910   CPU_WriteMem(4 bytes @ 0xE000EDF0)
T0630 000:350.218   CPU_WriteMem(4 bytes @ 0xE000EDFC)
T0630 000:356.239   CPU_ReadMem(4 bytes @ 0xE000EDF0)
T0630 000:357.758   CPU_WriteMem(4 bytes @ 0xE000EDFC)
T0630 000:358.013   CPU_WriteMem(4 bytes @ 0xE0001028)
T0630 000:358.335   CPU_WriteMem(4 bytes @ 0xE0001038)
T0630 000:358.593   CPU_WriteMem(4 bytes @ 0xE0001048)
T0630 000:358.844   CPU_WriteMem(4 bytes @ 0xE0001058)
T0630 000:359.119   AfterResetTarget()
T0630 000:377.020   CPU_WriteMem(4 bytes @ 0xE0002000)
T0630 000:377.236   CPU_ReadMem(4 bytes @ 0xE000EDFC)
T0630 000:377.467   CPU_ReadMem(4 bytes @ 0xE0001000)
T0630 000:377.719 - 82.098ms
T0630 000:377.783 JLINK_ReadReg(R15 (PC))
T0630 000:377.794 - 0.014ms returns 0x00000424
T0630 000:377.803 JLINK_ReadReg(XPSR)
T0630 000:377.811 - 0.010ms returns 0x01000000
T0630 000:377.887   JLINK_ReadMemEx(0x00000424, 0x003C Bytes, ..., Flags = 0x02000000)
T0630 000:377.904   CPU_ReadMem(128 bytes @ 0x00000400)
T0630 000:378.603    -- Updating C cache (128 bytes @ 0x00000400)
T0630 000:378.616    -- Read from C cache (60 bytes @ 0x00000424)
T0630 000:378.628   Data:  72 B6 05 48 05 49 01 60 0A 68 82 F3 08 88 04 48 ...
T0630 000:378.637 - 0.753ms returns 0x3C
T0630 000:378.649   JLINK_ReadMemEx(0x00000424, 0x0002 Bytes, ..., Flags = 0x02000000)
T0630 000:378.660    -- Read from C cache (2 bytes @ 0x00000424)
T0630 000:378.669   Data:  72 B6
T0630 000:378.678 - 0.032ms returns 0x02
T0630 000:378.688   JLINK_ReadMemEx(0x00000426, 0x0002 Bytes, ..., Flags = 0x02000000)
T0630 000:378.698    -- Read from C cache (2 bytes @ 0x00000426)
T0630 000:378.707   Data:  05 48
T0630 000:378.716 - 0.031ms returns 0x02
T0630 000:378.741   JLINK_ReadMemEx(0x00000426, 0x0002 Bytes, ..., Flags = 0x02000000)
T0630 000:378.751    -- Read from C cache (2 bytes @ 0x00000426)
T0630 000:378.760   Data:  05 48
T0630 000:378.769 - 0.032ms returns 0x02
T0630 000:378.779   JLINK_ReadMemEx(0x00000428, 0x003C Bytes, ..., Flags = 0x02000000)
T0630 000:378.788    -- Read from C cache (60 bytes @ 0x00000428)
T0630 000:378.799   Data:  05 49 01 60 0A 68 82 F3 08 88 04 48 80 47 62 B6 ...
T0630 000:378.808 - 0.032ms returns 0x3C
T0630 000:378.817   JLINK_ReadMemEx(0x00000428, 0x0002 Bytes, ..., Flags = 0x02000000)
T0630 000:378.827    -- Read from C cache (2 bytes @ 0x00000428)
T0630 000:378.836   Data:  05 49
T0630 000:378.845 - 0.031ms returns 0x02
T0630 000:378.859   JLINK_ReadMemEx(0x00000428, 0x003C Bytes, ..., Flags = 0x02000000)
T0630 000:378.870    -- Read from C cache (60 bytes @ 0x00000428)
T0630 000:378.880   Data:  05 49 01 60 0A 68 82 F3 08 88 04 48 80 47 62 B6 ...
T0630 000:378.888 - 0.033ms returns 0x3C
T0630 000:378.898   JLINK_ReadMemEx(0x00000428, 0x0002 Bytes, ..., Flags = 0x02000000)
T0630 000:378.907    -- Read from C cache (2 bytes @ 0x00000428)
T0630 000:378.916   Data:  05 49
T0630 000:378.925 - 0.031ms returns 0x02
T0630 000:378.934   JLINK_ReadMemEx(0x0000042A, 0x0002 Bytes, ..., Flags = 0x02000000)
T0630 000:378.944    -- Read from C cache (2 bytes @ 0x0000042A)
T0630 000:378.953   Data:  01 60
T0630 000:378.962 - 0.031ms returns 0x02
T0630 000:378.975   JLINK_ReadMemEx(0x0000042A, 0x0002 Bytes, ..., Flags = 0x02000000)
T0630 000:378.985    -- Read from C cache (2 bytes @ 0x0000042A)
T0630 000:378.994   Data:  01 60
T0630 000:379.008 - 0.036ms returns 0x02
T0630 000:379.018   JLINK_ReadMemEx(0x0000042C, 0x003C Bytes, ..., Flags = 0x02000000)
T0630 000:379.027    -- Read from C cache (60 bytes @ 0x0000042C)
T0630 000:379.037   Data:  0A 68 82 F3 08 88 04 48 80 47 62 B6 03 48 00 47 ...
T0630 000:379.046 - 0.031ms returns 0x3C
T0630 000:379.055   JLINK_ReadMemEx(0x0000042C, 0x0002 Bytes, ..., Flags = 0x02000000)
T0630 000:379.064    -- Read from C cache (2 bytes @ 0x0000042C)
T0630 000:379.073   Data:  0A 68
T0630 000:379.082 - 0.031ms returns 0x02
T0630 000:379.096   JLINK_ReadMemEx(0x0000042C, 0x003C Bytes, ..., Flags = 0x02000000)
T0630 000:379.106    -- Read from C cache (60 bytes @ 0x0000042C)
T0630 000:379.115   Data:  0A 68 82 F3 08 88 04 48 80 47 62 B6 03 48 00 47 ...
T0630 000:379.124 - 0.032ms returns 0x3C
T0630 000:379.133   JLINK_ReadMemEx(0x0000042C, 0x0002 Bytes, ..., Flags = 0x02000000)
T0630 000:379.143    -- Read from C cache (2 bytes @ 0x0000042C)
T0630 000:379.152   Data:  0A 68
T0630 000:379.161 - 0.031ms returns 0x02
T0630 000:379.171   JLINK_ReadMemEx(0x0000042E, 0x0002 Bytes, ..., Flags = 0x02000000)
T0630 000:379.181    -- Read from C cache (2 bytes @ 0x0000042E)
T0630 000:379.190   Data:  82 F3
T0630 000:379.199 - 0.031ms returns 0x02
T0630 002:473.787   JLINK_ReadMemEx(0x0000127A, 0x0002 Bytes, ..., Flags = 0x02000000)
T0630 002:473.818   CPU_ReadMem(64 bytes @ 0x00001240)
T0630 002:474.379    -- Updating C cache (64 bytes @ 0x00001240)
T0630 002:474.394    -- Read from C cache (2 bytes @ 0x0000127A)
T0630 002:474.405   Data:  40 F2
T0630 002:474.415 - 0.632ms returns 0x02
T0630 002:474.429   JLINK_ReadMemEx(0x0000127C, 0x003C Bytes, ..., Flags = 0x02000000)
T0630 002:474.442   CPU_ReadMem(64 bytes @ 0x00001280)
T0630 002:474.938    -- Updating C cache (64 bytes @ 0x00001280)
T0630 002:474.952    -- Read from C cache (60 bytes @ 0x0000127C)
T0630 002:474.963   Data:  74 01 05 F5 48 30 C2 F2 00 01 13 22 00 F0 CA FC ...
T0630 002:474.972 - 0.547ms returns 0x3C
T0630 002:474.984   JLINK_ReadMemEx(0x0000127C, 0x0002 Bytes, ..., Flags = 0x02000000)
T0630 002:474.996    -- Read from C cache (2 bytes @ 0x0000127C)
T0630 002:475.005   Data:  74 01
T0630 002:475.015 - 0.034ms returns 0x02
T0630 002:475.033   JLINK_ReadMemEx(0x0000127E, 0x0002 Bytes, ..., Flags = 0x02000000)
T0630 002:475.044    -- Read from C cache (2 bytes @ 0x0000127E)
T0630 002:475.054   Data:  05 F5
T0630 002:475.063 - 0.034ms returns 0x02
T0630 002:475.073   JLINK_ReadMemEx(0x00001280, 0x003C Bytes, ..., Flags = 0x02000000)
T0630 002:475.084    -- Read from C cache (60 bytes @ 0x00001280)
T0630 002:475.094   Data:  48 30 C2 F2 00 01 13 22 00 F0 CA FC 40 46 FF F7 ...
T0630 002:475.103 - 0.034ms returns 0x3C
T0630 002:475.113   JLINK_ReadMemEx(0x00001280, 0x0002 Bytes, ..., Flags = 0x02000000)
T0630 002:475.124    -- Read from C cache (2 bytes @ 0x00001280)
T0630 002:475.133   Data:  48 30
T0630 002:475.143 - 0.033ms returns 0x02
T0630 002:475.156   JLINK_ReadMemEx(0x00001282, 0x0002 Bytes, ..., Flags = 0x02000000)
T0630 002:475.167    -- Read from C cache (2 bytes @ 0x00001282)
T0630 002:475.176   Data:  C2 F2
T0630 002:475.186 - 0.033ms returns 0x02
T0630 002:475.195   JLINK_ReadMemEx(0x00001284, 0x003C Bytes, ..., Flags = 0x02000000)
T0630 002:475.206    -- Read from C cache (60 bytes @ 0x00001284)
T0630 002:475.216   Data:  00 01 13 22 00 F0 CA FC 40 46 FF F7 3F FF BD E8 ...
T0630 002:475.225 - 0.034ms returns 0x3C
T0630 002:475.235   JLINK_ReadMemEx(0x00001284, 0x0002 Bytes, ..., Flags = 0x02000000)
T0630 002:475.245    -- Read from C cache (2 bytes @ 0x00001284)
T0630 002:475.255   Data:  00 01
T0630 002:475.264 - 0.033ms returns 0x02
T0630 002:475.276   JLINK_ReadMemEx(0x00001286, 0x0002 Bytes, ..., Flags = 0x02000000)
T0630 002:475.287    -- Read from C cache (2 bytes @ 0x00001286)
T0630 002:475.296   Data:  13 22
T0630 002:475.306 - 0.033ms returns 0x02
T0630 002:475.316   JLINK_ReadMemEx(0x00001288, 0x003C Bytes, ..., Flags = 0x02000000)
T0630 002:475.328   CPU_ReadMem(64 bytes @ 0x000012C0)
T0630 002:475.873    -- Updating C cache (64 bytes @ 0x000012C0)
T0630 002:475.887    -- Read from C cache (60 bytes @ 0x00001288)
T0630 002:475.898   Data:  00 F0 CA FC 40 46 FF F7 3F FF BD E8 F0 81 00 00 ...
T0630 002:475.908 - 0.596ms returns 0x3C
T0630 002:475.920   JLINK_ReadMemEx(0x00001288, 0x0002 Bytes, ..., Flags = 0x02000000)
T0630 002:475.931    -- Read from C cache (2 bytes @ 0x00001288)
T0630 002:475.940   Data:  00 F0
T0630 002:475.950 - 0.034ms returns 0x02
T0630 002:887.787 JLINK_ReadReg(R0)
T0630 002:888.053 - 0.277ms returns 0x00000000
T0630 002:888.073 JLINK_ReadReg(R1)
T0630 002:888.082 - 0.012ms returns 0x00000000
T0630 002:888.092 JLINK_ReadReg(R2)
T0630 002:888.099 - 0.011ms returns 0x00000000
T0630 002:888.109 JLINK_ReadReg(R3)
T0630 002:888.116 - 0.011ms returns 0x00000000
T0630 002:888.125 JLINK_ReadReg(R4)
T0630 002:888.133 - 0.010ms returns 0x00000000
T0630 002:888.142 JLINK_ReadReg(R5)
T0630 002:888.150 - 0.010ms returns 0x00000000
T0630 002:888.159 JLINK_ReadReg(R6)
T0630 002:888.167 - 0.011ms returns 0x00000000
T0630 002:888.176 JLINK_ReadReg(R7)
T0630 002:888.184 - 0.010ms returns 0x00000000
T0630 002:888.193 JLINK_ReadReg(R8)
T0630 002:888.201 - 0.011ms returns 0x00000000
T0630 002:888.210 JLINK_ReadReg(R9)
T0630 002:888.218 - 0.010ms returns 0x00000000
T0630 002:888.227 JLINK_ReadReg(R10)
T0630 002:888.234 - 0.010ms returns 0x00000000
T0630 002:888.244 JLINK_ReadReg(R11)
T0630 002:888.251 - 0.010ms returns 0x00000000
T0630 002:888.261 JLINK_ReadReg(R12)
T0630 002:888.268 - 0.010ms returns 0x00000000
T0630 002:888.277 JLINK_ReadReg(R13 (SP))
T0630 002:888.285 - 0.011ms returns 0x20030000
T0630 002:888.295 JLINK_ReadReg(R14)
T0630 002:888.302 - 0.010ms returns 0xFFFFFFFF
T0630 002:888.311 JLINK_ReadReg(R15 (PC))
T0630 002:888.319 - 0.011ms returns 0x00000424
T0630 002:888.328 JLINK_ReadReg(XPSR)
T0630 002:888.336 - 0.010ms returns 0x01000000
T0630 002:888.345 JLINK_ReadReg(MSP)
T0630 002:888.352 - 0.010ms returns 0x20030000
T0630 002:888.362 JLINK_ReadReg(PSP)
T0630 002:888.369 - 0.010ms returns 0x00000000
T0630 002:888.379 JLINK_ReadReg(CFBP)
T0630 002:888.386 - 0.010ms returns 0x00000000
T0630 002:888.396 JLINK_ReadReg(FPSCR)
T0630 002:889.964 - 1.576ms returns 0x00000000
T0630 002:889.980 JLINK_ReadReg(FPS0)
T0630 002:889.989 - 0.012ms returns 0x00000000
T0630 002:889.999 JLINK_ReadReg(FPS1)
T0630 002:890.006 - 0.011ms returns 0x00000000
T0630 002:890.016 JLINK_ReadReg(FPS2)
T0630 002:890.023 - 0.010ms returns 0x00000000
T0630 002:890.033 JLINK_ReadReg(FPS3)
T0630 002:890.040 - 0.010ms returns 0x00000000
T0630 002:890.050 JLINK_ReadReg(FPS4)
T0630 002:890.057 - 0.010ms returns 0x00000000
T0630 002:890.066 JLINK_ReadReg(FPS5)
T0630 002:890.073 - 0.010ms returns 0x00000000
T0630 002:890.083 JLINK_ReadReg(FPS6)
T0630 002:890.090 - 0.010ms returns 0x00000000
T0630 002:890.099 JLINK_ReadReg(FPS7)
T0630 002:890.106 - 0.010ms returns 0x00000000
T0630 002:890.116 JLINK_ReadReg(FPS8)
T0630 002:890.123 - 0.010ms returns 0x00000000
T0630 002:890.132 JLINK_ReadReg(FPS9)
T0630 002:890.139 - 0.010ms returns 0x00000000
T0630 002:890.149 JLINK_ReadReg(FPS10)
T0630 002:890.156 - 0.010ms returns 0x00000000
T0630 002:890.165 JLINK_ReadReg(FPS11)
T0630 002:890.172 - 0.010ms returns 0x00000000
T0630 002:890.182 JLINK_ReadReg(FPS12)
T0630 002:890.189 - 0.010ms returns 0x00000000
T0630 002:890.199 JLINK_ReadReg(FPS13)
T0630 002:890.206 - 0.010ms returns 0x00000000
T0630 002:890.216 JLINK_ReadReg(FPS14)
T0630 002:890.223 - 0.010ms returns 0x00000000
T0630 002:890.232 JLINK_ReadReg(FPS15)
T0630 002:890.239 - 0.010ms returns 0x00000000
T0630 002:890.249 JLINK_ReadReg(FPS16)
T0630 002:890.256 - 0.010ms returns 0x00000000
T0630 002:890.265 JLINK_ReadReg(FPS17)
T0630 002:890.272 - 0.010ms returns 0x00000000
T0630 002:890.282 JLINK_ReadReg(FPS18)
T0630 002:890.289 - 0.010ms returns 0x00000000
T0630 002:890.298 JLINK_ReadReg(FPS19)
T0630 002:890.306 - 0.010ms returns 0x00000000
T0630 002:890.315 JLINK_ReadReg(FPS20)
T0630 002:890.328 - 0.016ms returns 0x00000000
T0630 002:890.338 JLINK_ReadReg(FPS21)
T0630 002:890.345 - 0.010ms returns 0x00000000
T0630 002:890.355 JLINK_ReadReg(FPS22)
T0630 002:890.362 - 0.010ms returns 0x00000000
T0630 002:890.372 JLINK_ReadReg(FPS23)
T0630 002:890.379 - 0.010ms returns 0x00000000
T0630 002:890.388 JLINK_ReadReg(FPS24)
T0630 002:890.395 - 0.010ms returns 0x00000000
T0630 002:890.405 JLINK_ReadReg(FPS25)
T0630 002:890.412 - 0.010ms returns 0x00000000
T0630 002:890.422 JLINK_ReadReg(FPS26)
T0630 002:890.429 - 0.010ms returns 0x00000000
T0630 002:890.439 JLINK_ReadReg(FPS27)
T0630 002:890.446 - 0.012ms returns 0x00000000
T0630 002:890.457 JLINK_ReadReg(FPS28)
T0630 002:890.464 - 0.010ms returns 0x00000000
T0630 002:890.474 JLINK_ReadReg(FPS29)
T0630 002:890.481 - 0.010ms returns 0x00000000
T0630 002:890.491 JLINK_ReadReg(FPS30)
T0630 002:890.498 - 0.010ms returns 0x00000000
T0630 002:890.507 JLINK_ReadReg(FPS31)
T0630 002:890.515 - 0.010ms returns 0x00000000
T1F00 003:006.584   JLINK_ReadMemEx(0x00000424, 0x0002 Bytes, ..., Flags = 0x02000000)
T1F00 003:006.623    -- Read from C cache (2 bytes @ 0x00000424)
T1F00 003:006.638   Data:  72 B6
T1F00 003:006.653 - 0.076ms returns 0x02
T1F00 003:006.678   JLINK_SetBPEx(Addr = 0x00001F98, Type = 0xFFFFFFF2)
T1F00 003:006.699 - 0.027ms returns 0x00000001
T1F00 003:006.717   JLINK_SetBPEx(Addr = 0x0000127A, Type = 0xFFFFFFF2)
T1F00 003:006.733 - 0.022ms returns 0x00000002
T1F00 003:006.754 JLINK_Go()
T1F00 003:006.793   CPU_ReadMem(4 bytes @ 0xE0001000)
T1F00 003:007.137   CPU_WriteMem(4 bytes @ 0xE0002008)
T1F00 003:007.168   CPU_WriteMem(4 bytes @ 0xE000200C)
T1F00 003:007.191   CPU_WriteMem(4 bytes @ 0xE0002010)
T1F00 003:007.206   CPU_WriteMem(4 bytes @ 0xE0002014)
T1F00 003:007.218   CPU_WriteMem(4 bytes @ 0xE0002018)
T1F00 003:007.229   CPU_WriteMem(4 bytes @ 0xE000201C)
T1F00 003:007.949   CPU_WriteMem(4 bytes @ 0xE0001004)
T1F00 003:008.507 - 1.762ms
T1F00 003:108.905 JLINK_IsHalted()
T1F00 003:109.980 - 1.087ms returns TRUE
T1F00 003:110.006 JLINK_Halt()
T1F00 003:110.015 - 0.012ms returns 0x00
T1F00 003:110.025 JLINK_IsHalted()
T1F00 003:110.032 - 0.011ms returns TRUE
T1F00 003:110.042 JLINK_IsHalted()
T1F00 003:110.049 - 0.010ms returns TRUE
T1F00 003:110.059 JLINK_IsHalted()
T1F00 003:110.066 - 0.010ms returns TRUE
T1F00 003:110.080 JLINK_ReadReg(R15 (PC))
T1F00 003:110.091 - 0.014ms returns 0x00001F98
T1F00 003:110.101 JLINK_ReadReg(XPSR)
T1F00 003:110.109 - 0.012ms returns 0x61000000
T1F00 003:110.125 JLINK_ClrBPEx(BPHandle = 0x00000001)
T1F00 003:110.133 - 0.012ms returns 0x00
T1F00 003:110.146 JLINK_ClrBPEx(BPHandle = 0x00000002)
T1F00 003:110.154 - 0.011ms returns 0x00
T1F00 003:110.169 JLINK_ReadMemU32(0xE000ED30, 0x0001 Items, ...)
T1F00 003:110.183   CPU_ReadMem(4 bytes @ 0xE000ED30)
T1F00 003:110.494   Data:  03 00 00 00
T1F00 003:110.511 - 0.345ms returns 1
T1F00 003:110.524 JLINK_ReadMemU32(0xE0001028, 0x0001 Items, ...)
T1F00 003:110.540   CPU_ReadMem(4 bytes @ 0xE0001028)
T1F00 003:110.793   Data:  00 00 00 00
T1F00 003:110.817    - DWT_FUNC[0]
T1F00 003:110.828 - 0.307ms returns 1
T1F00 003:110.841 JLINK_ReadMemU32(0xE0001038, 0x0001 Items, ...)
T1F00 003:110.861   CPU_ReadMem(4 bytes @ 0xE0001038)
T1F00 003:111.122   Data:  00 02 00 00
T1F00 003:111.137    - DWT_FUNC[1]
T1F00 003:111.148 - 0.311ms returns 1
T1F00 003:111.160 JLINK_ReadMemU32(0xE0001048, 0x0001 Items, ...)
T1F00 003:111.174   CPU_ReadMem(4 bytes @ 0xE0001048)
T1F00 003:111.455   Data:  00 00 00 00
T1F00 003:111.470    - DWT_FUNC[2]
T1F00 003:111.480 - 0.323ms returns 1
T1F00 003:111.493 JLINK_ReadMemU32(0xE0001058, 0x0001 Items, ...)
T1F00 003:111.506   CPU_ReadMem(4 bytes @ 0xE0001058)
T1F00 003:111.757   Data:  00 00 00 00
T1F00 003:111.772    - DWT_FUNC[3]
T1F00 003:111.782 - 0.293ms returns 1
T1F00 003:111.847 JLINK_ReadReg(R0)
T1F00 003:111.865 - 0.022ms returns 0x00001F99
T1F00 003:111.876 JLINK_ReadReg(R1)
T1F00 003:111.884 - 0.012ms returns 0x20000F54
T1F00 003:111.898 JLINK_ReadReg(R2)
T1F00 003:111.909 - 0.014ms returns 0x00000000
T1F00 003:111.919 JLINK_ReadReg(R3)
T1F00 003:111.927 - 0.011ms returns 0x0000201D
T1F00 003:111.937 JLINK_ReadReg(R4)
T1F00 003:111.945 - 0.011ms returns 0x00002C70
T1F00 003:111.955 JLINK_ReadReg(R5)
T1F00 003:111.963 - 0.011ms returns 0x00002C70
T1F00 003:111.973 JLINK_ReadReg(R6)
T1F00 003:111.981 - 0.011ms returns 0x00000000
T1F00 003:111.991 JLINK_ReadReg(R7)
T1F00 003:111.998 - 0.011ms returns 0x00000000
T1F00 003:112.008 JLINK_ReadReg(R8)
T1F00 003:112.016 - 0.011ms returns 0x00000000
T1F00 003:112.026 JLINK_ReadReg(R9)
T1F00 003:112.033 - 0.011ms returns 0x00000000
T1F00 003:112.043 JLINK_ReadReg(R10)
T1F00 003:112.051 - 0.011ms returns 0x00000000
T1F00 003:112.061 JLINK_ReadReg(R11)
T1F00 003:112.068 - 0.011ms returns 0x00000000
T1F00 003:112.078 JLINK_ReadReg(R12)
T1F00 003:112.086 - 0.011ms returns 0x00000000
T1F00 003:112.096 JLINK_ReadReg(R13 (SP))
T1F00 003:112.104 - 0.011ms returns 0x20030000
T1F00 003:112.114 JLINK_ReadReg(R14)
T1F00 003:112.121 - 0.011ms returns 0x00000679
T1F00 003:112.131 JLINK_ReadReg(R15 (PC))
T1F00 003:112.139 - 0.011ms returns 0x00001F98
T1F00 003:112.149 JLINK_ReadReg(XPSR)
T1F00 003:112.156 - 0.011ms returns 0x61000000
T1F00 003:112.166 JLINK_ReadReg(MSP)
T1F00 003:112.174 - 0.011ms returns 0x20030000
T1F00 003:112.184 JLINK_ReadReg(PSP)
T1F00 003:112.191 - 0.011ms returns 0x00000000
T1F00 003:112.201 JLINK_ReadReg(CFBP)
T1F00 003:112.209 - 0.011ms returns 0x00000000
T1F00 003:112.219 JLINK_ReadReg(FPSCR)
T1F00 003:113.731 - 1.522ms returns 0x00000000
T1F00 003:113.751 JLINK_ReadReg(FPS0)
T1F00 003:113.761 - 0.013ms returns 0x00000000
T1F00 003:113.771 JLINK_ReadReg(FPS1)
T1F00 003:113.779 - 0.011ms returns 0x00000000
T1F00 003:113.789 JLINK_ReadReg(FPS2)
T1F00 003:113.797 - 0.011ms returns 0x00000000
T1F00 003:113.807 JLINK_ReadReg(FPS3)
T1F00 003:113.814 - 0.011ms returns 0x00000000
T1F00 003:113.825 JLINK_ReadReg(FPS4)
T1F00 003:113.832 - 0.011ms returns 0x00000000
T1F00 003:113.842 JLINK_ReadReg(FPS5)
T1F00 003:113.852 - 0.014ms returns 0x00000000
T1F00 003:113.863 JLINK_ReadReg(FPS6)
T1F00 003:113.870 - 0.011ms returns 0x00000000
T1F00 003:113.880 JLINK_ReadReg(FPS7)
T1F00 003:113.887 - 0.011ms returns 0x00000000
T1F00 003:113.897 JLINK_ReadReg(FPS8)
T1F00 003:113.905 - 0.011ms returns 0x00000000
T1F00 003:113.914 JLINK_ReadReg(FPS9)
T1F00 003:113.922 - 0.011ms returns 0x00000000
T1F00 003:113.932 JLINK_ReadReg(FPS10)
T1F00 003:113.939 - 0.011ms returns 0x00000000
T1F00 003:113.949 JLINK_ReadReg(FPS11)
T1F00 003:113.956 - 0.011ms returns 0x00000000
T1F00 003:113.966 JLINK_ReadReg(FPS12)
T1F00 003:113.973 - 0.010ms returns 0x00000000
T1F00 003:113.983 JLINK_ReadReg(FPS13)
T1F00 003:113.990 - 0.011ms returns 0x00000000
T1F00 003:113.999 JLINK_ReadReg(FPS14)
T1F00 003:114.007 - 0.011ms returns 0x00000000
T1F00 003:114.016 JLINK_ReadReg(FPS15)
T1F00 003:114.024 - 0.010ms returns 0x00000000
T1F00 003:114.033 JLINK_ReadReg(FPS16)
T1F00 003:114.041 - 0.010ms returns 0x00000000
T1F00 003:114.050 JLINK_ReadReg(FPS17)
T1F00 003:114.057 - 0.010ms returns 0x00000000
T1F00 003:114.067 JLINK_ReadReg(FPS18)
T1F00 003:114.074 - 0.010ms returns 0x00000000
T1F00 003:114.084 JLINK_ReadReg(FPS19)
T1F00 003:114.091 - 0.011ms returns 0x00000000
T1F00 003:114.101 JLINK_ReadReg(FPS20)
T1F00 003:114.108 - 0.010ms returns 0x00000000
T1F00 003:114.118 JLINK_ReadReg(FPS21)
T1F00 003:114.125 - 0.010ms returns 0x00000000
T1F00 003:114.135 JLINK_ReadReg(FPS22)
T1F00 003:114.142 - 0.010ms returns 0x00000000
T1F00 003:114.152 JLINK_ReadReg(FPS23)
T1F00 003:114.159 - 0.010ms returns 0x00000000
T1F00 003:114.168 JLINK_ReadReg(FPS24)
T1F00 003:114.176 - 0.010ms returns 0x00000000
T1F00 003:114.185 JLINK_ReadReg(FPS25)
T1F00 003:114.193 - 0.010ms returns 0x00000000
T1F00 003:114.202 JLINK_ReadReg(FPS26)
T1F00 003:114.210 - 0.010ms returns 0x00000000
T1F00 003:114.219 JLINK_ReadReg(FPS27)
T1F00 003:114.226 - 0.010ms returns 0x00000000
T1F00 003:114.240 JLINK_ReadReg(FPS28)
T1F00 003:114.249 - 0.013ms returns 0x00000000
T1F00 003:114.259 JLINK_ReadReg(FPS29)
T1F00 003:114.266 - 0.011ms returns 0x00000000
T1F00 003:114.276 JLINK_ReadReg(FPS30)
T1F00 003:114.283 - 0.010ms returns 0x00000000
T1F00 003:114.293 JLINK_ReadReg(FPS31)
T1F00 003:114.300 - 0.010ms returns 0x00000000
T0630 003:116.523 JLINK_ReadMemU32(0xE0001004, 0x0001 Items, ...)
T0630 003:116.550   CPU_ReadMem(4 bytes @ 0xE0001004)
T0630 003:116.820   Data:  C8 17 00 00
T0630 003:116.837    - DWT_CYCCNT
T0630 003:116.849 - 0.329ms returns 1
T0630 003:129.219   JLINK_ReadMemEx(0x00001F98, 0x003C Bytes, ..., Flags = 0x02000000)
T0630 003:129.258   CPU_ReadMem(128 bytes @ 0x00001F80)
T0630 003:130.044    -- Updating C cache (128 bytes @ 0x00001F80)
T0630 003:130.074    -- Read from C cache (60 bytes @ 0x00001F98)
T0630 003:130.092   Data:  FF F7 24 F8 FF F7 24 FF FF F7 8C FF 40 F2 74 00 ...
T0630 003:130.106 - 0.893ms returns 0x3C
T0630 003:130.126   JLINK_ReadMemEx(0x00001F98, 0x0002 Bytes, ..., Flags = 0x02000000)
T0630 003:130.144    -- Read from C cache (2 bytes @ 0x00001F98)
T0630 003:130.159   Data:  FF F7
T0630 003:130.173 - 0.053ms returns 0x02
T0630 003:130.190   JLINK_ReadMemEx(0x00001F9A, 0x0002 Bytes, ..., Flags = 0x02000000)
T0630 003:130.207    -- Read from C cache (2 bytes @ 0x00001F9A)
T0630 003:130.222   Data:  24 F8
T0630 003:130.238 - 0.054ms returns 0x02
T0630 003:131.422   JLINK_ReadMemEx(0x00001F9C, 0x003C Bytes, ..., Flags = 0x02000000)
T0630 003:131.446    -- Read from C cache (60 bytes @ 0x00001F9C)
T0630 003:131.463   Data:  FF F7 24 FF FF F7 8C FF 40 F2 74 00 C2 F2 00 00 ...
T0630 003:131.477 - 0.062ms returns 0x3C
T0630 003:131.492   JLINK_ReadMemEx(0x00001F9C, 0x0002 Bytes, ..., Flags = 0x02000000)
T0630 003:131.507    -- Read from C cache (2 bytes @ 0x00001F9C)
T0630 003:131.521   Data:  FF F7
T0630 003:131.535 - 0.049ms returns 0x02
T0630 003:131.551   JLINK_ReadMemEx(0x00001F9E, 0x0002 Bytes, ..., Flags = 0x02000000)
T0630 003:131.567    -- Read from C cache (2 bytes @ 0x00001F9E)
T0630 003:131.581   Data:  24 FF
T0630 003:131.595 - 0.050ms returns 0x02
T1F00 004:265.544   JLINK_ReadMemEx(0x00001F98, 0x0002 Bytes, ..., Flags = 0x02000000)
T1F00 004:265.572    -- Read from C cache (2 bytes @ 0x00001F98)
T1F00 004:265.582   Data:  FF F7
T1F00 004:265.592 - 0.052ms returns 0x02
T1F00 004:265.608   JLINK_SetBPEx(Addr = 0x0000127A, Type = 0xFFFFFFF2)
T1F00 004:265.621 - 0.018ms returns 0x00000003
T1F00 004:265.636 JLINK_Go()
T1F00 004:266.049   CPU_ReadMem(4 bytes @ 0xE0001000)
T1F00 004:266.364   CPU_WriteMem(4 bytes @ 0xE0002008)
T1F00 004:266.380   CPU_WriteMem(4 bytes @ 0xE000200C)
T1F00 004:267.064 - 1.437ms
T1F00 004:367.526 JLINK_IsHalted()
T1F00 004:368.720 - 1.209ms returns TRUE
T1F00 004:368.749 JLINK_Halt()
T1F00 004:368.756 - 0.010ms returns 0x00
T1F00 004:368.765 JLINK_IsHalted()
T1F00 004:368.771 - 0.009ms returns TRUE
T1F00 004:368.780 JLINK_IsHalted()
T1F00 004:368.786 - 0.009ms returns TRUE
T1F00 004:368.794 JLINK_IsHalted()
T1F00 004:368.800 - 0.009ms returns TRUE
T1F00 004:368.812 JLINK_ReadReg(R15 (PC))
T1F00 004:368.822 - 0.014ms returns 0x0000127A
T1F00 004:368.834 JLINK_ReadReg(XPSR)
T1F00 004:368.841 - 0.010ms returns 0x61000000
T1F00 004:368.857 JLINK_ClrBPEx(BPHandle = 0x00000003)
T1F00 004:368.864 - 0.010ms returns 0x00
T1F00 004:368.878 JLINK_ReadMemU32(0xE000ED30, 0x0001 Items, ...)
T1F00 004:368.891   CPU_ReadMem(4 bytes @ 0xE000ED30)
T1F00 004:369.222   Data:  02 00 00 00
T1F00 004:369.237 - 0.363ms returns 1
T1F00 004:369.249 JLINK_ReadMemU32(0xE0001028, 0x0001 Items, ...)
T1F00 004:369.263   CPU_ReadMem(4 bytes @ 0xE0001028)
T1F00 004:369.529   Data:  00 00 00 00
T1F00 004:369.544    - DWT_FUNC[0]
T1F00 004:369.552 - 0.306ms returns 1
T1F00 004:369.564 JLINK_ReadMemU32(0xE0001038, 0x0001 Items, ...)
T1F00 004:369.575   CPU_ReadMem(4 bytes @ 0xE0001038)
T1F00 004:369.863   Data:  00 02 00 00
T1F00 004:369.876    - DWT_FUNC[1]
T1F00 004:369.885 - 0.324ms returns 1
T1F00 004:369.900 JLINK_ReadMemU32(0xE0001048, 0x0001 Items, ...)
T1F00 004:369.913   CPU_ReadMem(4 bytes @ 0xE0001048)
T1F00 004:370.210   Data:  00 00 00 00
T1F00 004:370.224    - DWT_FUNC[2]
T1F00 004:370.232 - 0.335ms returns 1
T1F00 004:370.243 JLINK_ReadMemU32(0xE0001058, 0x0001 Items, ...)
T1F00 004:370.255   CPU_ReadMem(4 bytes @ 0xE0001058)
T1F00 004:370.521   Data:  00 00 00 00
T1F00 004:370.534    - DWT_FUNC[3]
T1F00 004:370.543 - 0.302ms returns 1
T1F00 004:370.645 JLINK_ReadReg(R0)
T1F00 004:370.658 - 0.017ms returns 0x00000010
T1F00 004:370.667 JLINK_ReadReg(R1)
T1F00 004:370.674 - 0.010ms returns 0x20000074
T1F00 004:370.683 JLINK_ReadReg(R2)
T1F00 004:370.689 - 0.009ms returns 0x000001C8
T1F00 004:370.698 JLINK_ReadReg(R3)
T1F00 004:370.704 - 0.009ms returns 0x00000001
T1F00 004:370.713 JLINK_ReadReg(R4)
T1F00 004:370.719 - 0.009ms returns 0x20000004
T1F00 004:370.728 JLINK_ReadReg(R5)
T1F00 004:370.734 - 0.009ms returns 0x4003B000
T1F00 004:370.743 JLINK_ReadReg(R6)
T1F00 004:370.750 - 0.009ms returns 0x20000074
T1F00 004:370.758 JLINK_ReadReg(R7)
T1F00 004:370.765 - 0.009ms returns 0x00000004
T1F00 004:370.773 JLINK_ReadReg(R8)
T1F00 004:370.780 - 0.009ms returns 0x00000000
T1F00 004:370.789 JLINK_ReadReg(R9)
T1F00 004:370.795 - 0.009ms returns 0x00000000
T1F00 004:370.804 JLINK_ReadReg(R10)
T1F00 004:370.810 - 0.009ms returns 0x00000000
T1F00 004:370.819 JLINK_ReadReg(R11)
T1F00 004:370.826 - 0.009ms returns 0x00000000
T1F00 004:370.834 JLINK_ReadReg(R12)
T1F00 004:370.841 - 0.009ms returns 0x00000016
T1F00 004:370.850 JLINK_ReadReg(R13 (SP))
T1F00 004:370.856 - 0.010ms returns 0x2002FFE8
T1F00 004:370.865 JLINK_ReadReg(R14)
T1F00 004:370.872 - 0.009ms returns 0x0000127B
T1F00 004:370.880 JLINK_ReadReg(R15 (PC))
T1F00 004:370.887 - 0.009ms returns 0x0000127A
T1F00 004:370.895 JLINK_ReadReg(XPSR)
T1F00 004:370.902 - 0.009ms returns 0x61000000
T1F00 004:370.911 JLINK_ReadReg(MSP)
T1F00 004:370.917 - 0.009ms returns 0x2002FFE8
T1F00 004:370.926 JLINK_ReadReg(PSP)
T1F00 004:370.932 - 0.009ms returns 0x00000000
T1F00 004:370.941 JLINK_ReadReg(CFBP)
T1F00 004:370.948 - 0.009ms returns 0x04000001
T1F00 004:370.956 JLINK_ReadReg(FPSCR)
T1F00 004:372.510 - 1.565ms returns 0x20000010
T1F00 004:372.532 JLINK_ReadReg(FPS0)
T1F00 004:372.542 - 0.014ms returns 0x00000008
T1F00 004:372.551 JLINK_ReadReg(FPS1)
T1F00 004:372.558 - 0.010ms returns 0x00000000
T1F00 004:372.567 JLINK_ReadReg(FPS2)
T1F00 004:372.574 - 0.009ms returns 0x3C800000
T1F00 004:372.582 JLINK_ReadReg(FPS3)
T1F00 004:372.589 - 0.009ms returns 0x00000000
T1F00 004:372.597 JLINK_ReadReg(FPS4)
T1F00 004:372.604 - 0.009ms returns 0x43160000
T1F00 004:372.612 JLINK_ReadReg(FPS5)
T1F00 004:372.619 - 0.009ms returns 0x00000000
T1F00 004:372.627 JLINK_ReadReg(FPS6)
T1F00 004:372.634 - 0.009ms returns 0x46F6995A
T1F00 004:372.642 JLINK_ReadReg(FPS7)
T1F00 004:372.649 - 0.009ms returns 0x00000000
T1F00 004:372.657 JLINK_ReadReg(FPS8)
T1F00 004:372.663 - 0.009ms returns 0xBE0057A5
T1F00 004:372.672 JLINK_ReadReg(FPS9)
T1F00 004:372.678 - 0.009ms returns 0x00000000
T1F00 004:372.687 JLINK_ReadReg(FPS10)
T1F00 004:372.693 - 0.009ms returns 0x00000000
T1F00 004:372.702 JLINK_ReadReg(FPS11)
T1F00 004:372.709 - 0.009ms returns 0x00000000
T1F00 004:372.717 JLINK_ReadReg(FPS12)
T1F00 004:372.724 - 0.009ms returns 0x00000000
T1F00 004:372.732 JLINK_ReadReg(FPS13)
T1F00 004:372.739 - 0.009ms returns 0x00000000
T1F00 004:372.747 JLINK_ReadReg(FPS14)
T1F00 004:372.753 - 0.009ms returns 0x00000000
T1F00 004:372.762 JLINK_ReadReg(FPS15)
T1F00 004:372.768 - 0.009ms returns 0x00000000
T1F00 004:372.777 JLINK_ReadReg(FPS16)
T1F00 004:372.783 - 0.009ms returns 0x00000000
T1F00 004:372.792 JLINK_ReadReg(FPS17)
T1F00 004:372.798 - 0.009ms returns 0x00000000
T1F00 004:372.807 JLINK_ReadReg(FPS18)
T1F00 004:372.813 - 0.009ms returns 0x00000000
T1F00 004:372.822 JLINK_ReadReg(FPS19)
T1F00 004:372.828 - 0.009ms returns 0x00000000
T1F00 004:372.837 JLINK_ReadReg(FPS20)
T1F00 004:372.843 - 0.012ms returns 0x00000000
T1F00 004:372.857 JLINK_ReadReg(FPS21)
T1F00 004:372.863 - 0.009ms returns 0x00000000
T1F00 004:372.872 JLINK_ReadReg(FPS22)
T1F00 004:372.878 - 0.009ms returns 0x00000000
T1F00 004:372.886 JLINK_ReadReg(FPS23)
T1F00 004:372.893 - 0.009ms returns 0x00000000
T1F00 004:372.902 JLINK_ReadReg(FPS24)
T1F00 004:372.908 - 0.009ms returns 0x00000000
T1F00 004:372.917 JLINK_ReadReg(FPS25)
T1F00 004:372.923 - 0.009ms returns 0x00000000
T1F00 004:372.932 JLINK_ReadReg(FPS26)
T1F00 004:372.938 - 0.009ms returns 0x00000000
T1F00 004:372.947 JLINK_ReadReg(FPS27)
T1F00 004:372.953 - 0.009ms returns 0x00000000
T1F00 004:372.962 JLINK_ReadReg(FPS28)
T1F00 004:372.969 - 0.009ms returns 0x00000000
T1F00 004:372.977 JLINK_ReadReg(FPS29)
T1F00 004:372.983 - 0.009ms returns 0x00000000
T1F00 004:372.992 JLINK_ReadReg(FPS30)
T1F00 004:372.999 - 0.010ms returns 0x00000000
T1F00 004:373.007 JLINK_ReadReg(FPS31)
T1F00 004:373.014 - 0.009ms returns 0x00000000
T0630 004:373.217   JLINK_ReadMemEx(0x2002FFFC, 0x0004 Bytes, ..., Flags = 0x02000000)
T0630 004:373.247   CPU_ReadMem(64 bytes @ 0x2002FFC0)
T0630 004:373.691    -- Updating C cache (64 bytes @ 0x2002FFC0)
T0630 004:373.704    -- Read from C cache (4 bytes @ 0x2002FFFC)
T0630 004:373.714   Data:  CF 1F 00 00
T0630 004:373.724 - 0.511ms returns 0x04
T0630 004:373.835   JLINK_ReadMemEx(0x2002FFE8, 0x0004 Bytes, ..., Flags = 0x02000000)
T0630 004:373.848    -- Read from C cache (4 bytes @ 0x2002FFE8)
T0630 004:373.857   Data:  00 00 00 00
T0630 004:373.866 - 0.034ms returns 0x04
T0630 004:373.950   JLINK_ReadMemEx(0x2002FFEC, 0x0004 Bytes, ..., Flags = 0x02000000)
T0630 004:373.960    -- Read from C cache (4 bytes @ 0x2002FFEC)
T0630 004:373.969   Data:  9C 0E 00 20
T0630 004:373.978 - 0.031ms returns 0x04
T0630 004:373.987   JLINK_ReadMemEx(0x2002FFF0, 0x0004 Bytes, ..., Flags = 0x02000000)
T0630 004:373.996    -- Read from C cache (4 bytes @ 0x2002FFF0)
T0630 004:374.005   Data:  00 00 00 00
T0630 004:374.014 - 0.030ms returns 0x04
T0630 004:374.023   JLINK_ReadMemEx(0x2002FFF4, 0x0004 Bytes, ..., Flags = 0x02000000)
T0630 004:374.032    -- Read from C cache (4 bytes @ 0x2002FFF4)
T0630 004:374.041   Data:  00 00 00 00
T0630 004:374.050 - 0.030ms returns 0x04
T0630 004:374.059   JLINK_ReadMemEx(0x2002FFF8, 0x0004 Bytes, ..., Flags = 0x02000000)
T0630 004:374.068    -- Read from C cache (4 bytes @ 0x2002FFF8)
T0630 004:374.077   Data:  00 00 00 00
T0630 004:374.086 - 0.030ms returns 0x04
T0630 004:374.095   JLINK_ReadMemEx(0x2002FFFC, 0x0004 Bytes, ..., Flags = 0x02000000)
T0630 004:374.104    -- Read from C cache (4 bytes @ 0x2002FFFC)
T0630 004:374.113   Data:  CF 1F 00 00
T0630 004:374.122 - 0.030ms returns 0x04
T0630 004:375.273 JLINK_ReadMemU32(0xE0001004, 0x0001 Items, ...)
T0630 004:375.290   CPU_ReadMem(4 bytes @ 0xE0001004)
T0630 004:375.574   Data:  4D 82 18 00
T0630 004:375.588    - DWT_CYCCNT
T0630 004:375.597 - 0.327ms returns 1
T0630 004:380.963   JLINK_ReadMemEx(0x0000127A, 0x0002 Bytes, ..., Flags = 0x02000000)
T0630 004:381.054   CPU_ReadMem(64 bytes @ 0x00001240)
T0630 004:381.684    -- Updating C cache (64 bytes @ 0x00001240)
T0630 004:381.701    -- Read from C cache (2 bytes @ 0x0000127A)
T0630 004:381.711   Data:  40 F2
T0630 004:381.721 - 0.763ms returns 0x02
T0630 004:381.735   JLINK_ReadMemEx(0x0000127C, 0x003C Bytes, ..., Flags = 0x02000000)
T0630 004:381.748   CPU_ReadMem(64 bytes @ 0x00001280)
T0630 004:382.243    -- Updating C cache (64 bytes @ 0x00001280)
T0630 004:382.257    -- Read from C cache (60 bytes @ 0x0000127C)
T0630 004:382.268   Data:  74 01 05 F5 48 30 C2 F2 00 01 13 22 00 F0 CA FC ...
T0630 004:382.277 - 0.546ms returns 0x3C
T0630 004:382.289   JLINK_ReadMemEx(0x0000127C, 0x0002 Bytes, ..., Flags = 0x02000000)
T0630 004:382.300    -- Read from C cache (2 bytes @ 0x0000127C)
T0630 004:382.309   Data:  74 01
T0630 004:382.318 - 0.032ms returns 0x02
T0630 004:382.339   JLINK_ReadMemEx(0x0000127E, 0x0002 Bytes, ..., Flags = 0x02000000)
T0630 004:382.349    -- Read from C cache (2 bytes @ 0x0000127E)
T0630 004:382.364   Data:  05 F5
T0630 004:382.373 - 0.037ms returns 0x02
T0630 004:382.383   JLINK_ReadMemEx(0x00001280, 0x003C Bytes, ..., Flags = 0x02000000)
T0630 004:382.392    -- Read from C cache (60 bytes @ 0x00001280)
T0630 004:382.402   Data:  48 30 C2 F2 00 01 13 22 00 F0 CA FC 40 46 FF F7 ...
T0630 004:382.411 - 0.032ms returns 0x3C
T0630 004:382.420   JLINK_ReadMemEx(0x00001280, 0x0002 Bytes, ..., Flags = 0x02000000)
T0630 004:382.430    -- Read from C cache (2 bytes @ 0x00001280)
T0630 004:382.439   Data:  48 30
T0630 004:382.447 - 0.031ms returns 0x02
T0630 004:382.463   JLINK_ReadMemEx(0x00001282, 0x0002 Bytes, ..., Flags = 0x02000000)
T0630 004:382.473    -- Read from C cache (2 bytes @ 0x00001282)
T0630 004:382.482   Data:  C2 F2
T0630 004:382.491 - 0.032ms returns 0x02
T0630 004:382.501   JLINK_ReadMemEx(0x00001284, 0x003C Bytes, ..., Flags = 0x02000000)
T0630 004:382.510    -- Read from C cache (60 bytes @ 0x00001284)
T0630 004:382.520   Data:  00 01 13 22 00 F0 CA FC 40 46 FF F7 3F FF BD E8 ...
T0630 004:382.528 - 0.031ms returns 0x3C
T0630 004:382.538   JLINK_ReadMemEx(0x00001284, 0x0002 Bytes, ..., Flags = 0x02000000)
T0630 004:382.547    -- Read from C cache (2 bytes @ 0x00001284)
T0630 004:382.556   Data:  00 01
T0630 004:382.565 - 0.031ms returns 0x02
T0630 004:382.577   JLINK_ReadMemEx(0x00001286, 0x0002 Bytes, ..., Flags = 0x02000000)
T0630 004:382.586    -- Read from C cache (2 bytes @ 0x00001286)
T0630 004:382.595   Data:  13 22
T0630 004:382.604 - 0.031ms returns 0x02
T0630 004:382.613   JLINK_ReadMemEx(0x00001288, 0x003C Bytes, ..., Flags = 0x02000000)
T0630 004:382.625   CPU_ReadMem(64 bytes @ 0x000012C0)
T0630 004:383.068    -- Updating C cache (64 bytes @ 0x000012C0)
T0630 004:383.081    -- Read from C cache (60 bytes @ 0x00001288)
T0630 004:383.091   Data:  00 F0 CA FC 40 46 FF F7 3F FF BD E8 F0 81 00 00 ...
T0630 004:383.100 - 0.490ms returns 0x3C
T0630 004:383.111   JLINK_ReadMemEx(0x00001288, 0x0002 Bytes, ..., Flags = 0x02000000)
T0630 004:383.122    -- Read from C cache (2 bytes @ 0x00001288)
T0630 004:383.131   Data:  00 F0
T0630 004:383.140 - 0.032ms returns 0x02
T1F00 005:002.134   JLINK_ReadMemEx(0x0000127A, 0x0002 Bytes, ..., Flags = 0x02000000)
T1F00 005:002.163    -- Read from C cache (2 bytes @ 0x0000127A)
T1F00 005:002.172   Data:  40 F2
T1F00 005:002.182 - 0.052ms returns 0x02
T1F00 005:002.197 JLINK_Step()
T1F00 005:002.476    -- Read from C cache (2 bytes @ 0x0000127A)
T1F00 005:002.503   CPU_ReadMem(4 bytes @ 0xE000ED18)
T1F00 005:002.727   CPU_WriteMem(4 bytes @ 0xE000ED18)
T1F00 005:003.000   CPU_ReadMem(4 bytes @ 0xE000ED18)
T1F00 005:003.252   CPU_WriteMem(4 bytes @ 0xE000ED18)
T1F00 005:003.509    -- Read from C cache (2 bytes @ 0x0000127C)
T1F00 005:003.527    -- Simulated
T1F00 005:003.536 - 1.342ms returns 0x00
T1F00 005:003.551 JLINK_ReadReg(R15 (PC))
T1F00 005:003.560 - 0.012ms returns 0x0000127E
T1F00 005:003.569 JLINK_ReadReg(XPSR)
T1F00 005:003.575 - 0.009ms returns 0x61000000
T1F00 005:003.591   JLINK_SetBPEx(Addr = 0x0000127A, Type = 0xFFFFFFF2)
T1F00 005:003.601 - 0.014ms returns 0x00000004
T1F00 005:003.614 JLINK_Go()
T1F00 005:003.629   CPU_ReadMem(4 bytes @ 0xE0001000)
T1F00 005:003.881   CPU_WriteMem(4 bytes @ 0xE0001004)
T1F00 005:004.688 - 1.081ms
T1F00 005:105.548 JLINK_IsHalted()
T1F00 005:106.671 - 1.131ms returns TRUE
T1F00 005:106.690 JLINK_Halt()
T1F00 005:106.696 - 0.009ms returns 0x00
T1F00 005:106.705 JLINK_IsHalted()
T1F00 005:106.711 - 0.009ms returns TRUE
T1F00 005:106.719 JLINK_IsHalted()
T1F00 005:106.725 - 0.008ms returns TRUE
T1F00 005:106.733 JLINK_IsHalted()
T1F00 005:106.739 - 0.008ms returns TRUE
T1F00 005:106.750 JLINK_ReadReg(R15 (PC))
T1F00 005:106.759 - 0.011ms returns 0x0000127A
T1F00 005:106.767 JLINK_ReadReg(XPSR)
T1F00 005:106.774 - 0.009ms returns 0x61000000
T1F00 005:106.787 JLINK_ClrBPEx(BPHandle = 0x00000004)
T1F00 005:106.794 - 0.010ms returns 0x00
T1F00 005:106.807 JLINK_ReadMemU32(0xE000ED30, 0x0001 Items, ...)
T1F00 005:106.822   CPU_ReadMem(4 bytes @ 0xE000ED30)
T1F00 005:107.078   Data:  02 00 00 00
T1F00 005:107.090 - 0.285ms returns 1
T1F00 005:107.100 JLINK_ReadMemU32(0xE0001028, 0x0001 Items, ...)
T1F00 005:107.111   CPU_ReadMem(4 bytes @ 0xE0001028)
T1F00 005:107.336   Data:  00 00 00 00
T1F00 005:107.348    - DWT_FUNC[0]
T1F00 005:107.356 - 0.259ms returns 1
T1F00 005:107.367 JLINK_ReadMemU32(0xE0001038, 0x0001 Items, ...)
T1F00 005:107.377   CPU_ReadMem(4 bytes @ 0xE0001038)
T1F00 005:107.629   Data:  00 02 00 00
T1F00 005:107.641    - DWT_FUNC[1]
T1F00 005:107.649 - 0.286ms returns 1
T1F00 005:107.660 JLINK_ReadMemU32(0xE0001048, 0x0001 Items, ...)
T1F00 005:107.670   CPU_ReadMem(4 bytes @ 0xE0001048)
T1F00 005:107.917   Data:  00 00 00 00
T1F00 005:107.929    - DWT_FUNC[2]
T1F00 005:107.938 - 0.280ms returns 1
T1F00 005:107.948 JLINK_ReadMemU32(0xE0001058, 0x0001 Items, ...)
T1F00 005:107.959   CPU_ReadMem(4 bytes @ 0xE0001058)
T1F00 005:108.210   Data:  00 00 00 00
T1F00 005:108.222    - DWT_FUNC[3]
T1F00 005:108.231 - 0.286ms returns 1
T1F00 005:108.297 JLINK_ReadReg(R0)
T1F00 005:108.306 - 0.012ms returns 0x00000010
T1F00 005:108.315 JLINK_ReadReg(R1)
T1F00 005:108.321 - 0.009ms returns 0x20000074
T1F00 005:108.330 JLINK_ReadReg(R2)
T1F00 005:108.336 - 0.009ms returns 0x000001BB
T1F00 005:108.344 JLINK_ReadReg(R3)
T1F00 005:108.350 - 0.009ms returns 0x00000001
T1F00 005:108.359 JLINK_ReadReg(R4)
T1F00 005:108.365 - 0.009ms returns 0x20000004
T1F00 005:108.373 JLINK_ReadReg(R5)
T1F00 005:108.379 - 0.009ms returns 0x4003B000
T1F00 005:108.388 JLINK_ReadReg(R6)
T1F00 005:108.394 - 0.009ms returns 0x20000074
T1F00 005:108.402 JLINK_ReadReg(R7)
T1F00 005:108.408 - 0.009ms returns 0x00000004
T1F00 005:108.417 JLINK_ReadReg(R8)
